T8414 000:074.556   SEGGER J-Link V8.16 Log File
T8414 000:074.708   DLL Compiled: Feb 26 2025 12:07:26
T8414 000:074.714   Logging started @ 2026-01-08 08:42
T8414 000:074.719   Process: D:\Keil_v543\UV4\UV4.exe
T8414 000:074.732 - 74.724ms 
T8414 000:074.755 JLINK_SetWarnOutHandler(...)
T8414 000:074.760 - 0.005ms 
T8414 000:074.768 JLINK_OpenEx(...)
T8414 000:081.790   Firmware: J-Link V9 compiled Dec 13 2022 11:14:50
T8414 000:083.322   Firmware: J-Link V9 compiled Dec 13 2022 11:14:50
T8414 000:083.445   Decompressing FW timestamp took 104 us
T8414 000:091.352   Hardware: V9.70
T8414 000:091.369   S/N: 69743680
T8414 000:091.374   OEM: SEGGER
T8414 000:091.380   Feature(s): RDI, GDB, FlashDL, FlashBP, JFlash
T8414 000:092.714   Bootloader: (FW returned invalid version)
T8414 000:095.106   TELNET listener socket opened on port 19021
T8414 000:095.277   WEBSRV WEBSRV_Init(): Starting webserver thread(s)
T8414 000:095.331   WEBSRV Failed to put socket into listener state (port 19080)
T8414 000:095.395   WEBSRV Webserver running on local port 19081
T8414 000:095.513   Looking for J-Link GUI Server exe at: D:\Keil_v543\ARM\Segger\JLinkGUIServer.exe
T8414 000:095.603   Looking for J-Link GUI Server exe at: E:\Program Files\SEGGER\JLink_V814\JLinkGUIServer.exe
T8414 000:095.615   Forking J-Link GUI Server: E:\Program Files\SEGGER\JLink_V814\JLinkGUIServer.exe
T8414 000:097.645   J-Link GUI Server info: "J-Link GUI server V8.14 "
T8414 000:098.853 - 24.079ms returns "O.K."
T8414 000:098.899 JLINK_GetEmuCaps()
T8414 000:098.906 - 0.005ms returns 0xB9FF7BBF
T8414 000:098.915 JLINK_TIF_GetAvailable(...)
T8414 000:100.050 - 1.135ms 
T8414 000:100.104 JLINK_SetErrorOutHandler(...)
T8414 000:100.109 - 0.005ms 
T8414 000:100.148 JLINK_ExecCommand("ProjectFile = "D:\200_WL\280_Project\WL_W20_Mainboard\04_Software\W20_Mainboard\Vendor\MDK-ARM_F403A\JLinkSettings.ini"", ...). 
T8414 000:114.995   Flash bank @ 0x08000000: SFL: Parsing sectorization info from ELF file
T8414 000:115.015     FlashDevice.SectorInfo[0]: .SectorSize = 0x00000800, .SectorStartAddr = 0x00000000
T8414 000:115.022   FlashBank @0x08000000: Sectorization info from SFL ELF file ignored because sectorization override from DLL / XML file is active.
T8414 000:115.383   Flash bank @ 0x1FFFF800: SFL: Parsing sectorization info from ELF file
T8414 000:115.393     FlashDevice.SectorInfo[0]: .SectorSize = 0x00000030, .SectorStartAddr = 0x00000000
T8414 000:115.399   FlashBank @0x1FFFF800: Sectorization info from SFL ELF file ignored because sectorization override from DLL / XML file is active.
T8414 000:115.417   Flash bank @ 0x08400000: SFL: Parsing sectorization info from ELF file
T8414 000:115.423     FlashDevice.SectorInfo[0]: .SectorSize = 0x00001000, .SectorStartAddr = 0x00000000
T8414 000:116.972   Device "AT32F403AVGT7" selected.
T8414 000:117.184 - 17.050ms returns 0x00
T8414 000:117.252 JLINK_ExecCommand("Device = -AT32F403AVGT7", ...). 
T8414 000:117.732   Flash bank @ 0x08000000: SFL: Parsing sectorization info from ELF file
T8414 000:117.740     FlashDevice.SectorInfo[0]: .SectorSize = 0x00000800, .SectorStartAddr = 0x00000000
T8414 000:117.746   FlashBank @0x08000000: Sectorization info from SFL ELF file ignored because sectorization override from DLL / XML file is active.
T8414 000:118.038   Flash bank @ 0x1FFFF800: SFL: Parsing sectorization info from ELF file
T8414 000:118.045     FlashDevice.SectorInfo[0]: .SectorSize = 0x00000030, .SectorStartAddr = 0x00000000
T8414 000:118.052   FlashBank @0x1FFFF800: Sectorization info from SFL ELF file ignored because sectorization override from DLL / XML file is active.
T8414 000:118.066   Flash bank @ 0x08400000: SFL: Parsing sectorization info from ELF file
T8414 000:118.072     FlashDevice.SectorInfo[0]: .SectorSize = 0x00001000, .SectorStartAddr = 0x00000000
T8414 000:119.430   Device "AT32F403AVGT7" selected.
T8414 000:119.603 - 2.342ms returns 0x00
T8414 000:119.611 JLINK_ExecCommand("DisableConnectionTimeout", ...). 
T8414 000:119.624   ERROR: Unknown command
T8414 000:119.629 - 0.013ms returns 0x01
T8414 000:119.660 JLINK_GetHardwareVersion()
T8414 000:119.664 - 0.004ms returns 97000
T8414 000:119.669 JLINK_GetDLLVersion()
T8414 000:119.672 - 0.003ms returns 81600
T8414 000:119.677 JLINK_GetOEMString(...)
T8414 000:119.681 JLINK_GetFirmwareString(...)
T8414 000:119.685 - 0.003ms 
T8414 000:119.700 JLINK_GetDLLVersion()
T8414 000:119.704 - 0.003ms returns 81600
T8414 000:119.709 JLINK_GetCompileDateTime()
T8414 000:119.712 - 0.003ms 
T8414 000:119.720 JLINK_GetFirmwareString(...)
T8414 000:119.723 - 0.003ms 
T8414 000:119.730 JLINK_GetHardwareVersion()
T8414 000:119.734 - 0.003ms returns 97000
T8414 000:119.741 JLINK_GetSN()
T8414 000:119.744 - 0.003ms returns 69743680
T8414 000:119.751 JLINK_GetOEMString(...)
T8414 000:119.768 JLINK_TIF_Select(JLINKARM_TIF_SWD)
T8414 000:134.235 - 14.466ms returns 0x00
T8414 000:134.288 JLINK_HasError()
T8414 000:134.311 JLINK_SetSpeed(10000)
T8414 000:134.798 - 0.488ms 
T8414 000:134.817 JLINK_GetId()
T8414 000:135.260   InitTarget() start
T8414 000:135.272    J-Link Script File: Executing InitTarget()
T8414 000:138.855   DAP initialized successfully.
T8414 000:139.777     No Protection is set.
T8414 000:139.803   InitTarget() end - Took 4.52ms
T8414 000:140.901   Found SW-DP with ID 0x2BA01477
T8414 000:143.413   Old FW that does not support reading DPIDR via DAP jobs
T8414 000:144.308   DPv0 detected
T8414 000:144.328   CoreSight SoC-400 or earlier
T8414 000:144.354   Scanning AP map to find all available APs
T8414 000:145.269   AP[1]: Stopped AP scan as end of AP map has been reached
T8414 000:145.292   AP[0]: AHB-AP (IDR: 0x24770011, ADDR: 0x00000000)
T8414 000:145.307   Iterating through AP map to find AHB-AP to use
T8414 000:146.671   AP[0]: Core found
T8414 000:146.696   AP[0]: AHB-AP ROM base: 0xE00FF000
T8414 000:147.389   CPUID register: 0x410FC241. Implementer code: 0x41 (ARM)
T8414 000:147.434   Found Cortex-M4 r0p1, Little endian.
T8414 000:148.284   -- Max. mem block: 0x0000D310
T8414 000:149.509   CPU_ReadMem(4 bytes @ 0xE000EDF0)
T8414 000:150.027   CPU_ReadMem(4 bytes @ 0xE0002000)
T8414 000:150.705   FPUnit: 6 code (BP) slots and 2 literal slots
T8414 000:150.719   CPU_ReadMem(4 bytes @ 0xE000EDFC)
T8414 000:151.373   CPU_ReadMem(4 bytes @ 0xE0001000)
T8414 000:151.873   CPU_WriteMem(4 bytes @ 0xE0001000)
T8414 000:152.482   CPU_ReadMem(4 bytes @ 0xE000ED88)
T8414 000:152.982   CPU_WriteMem(4 bytes @ 0xE000ED88)
T8414 000:153.534   CPU_ReadMem(4 bytes @ 0xE000ED88)
T8414 000:154.050   CPU_WriteMem(4 bytes @ 0xE000ED88)
T8414 000:154.603   CoreSight components:
T8414 000:154.628   ROMTbl[0] @ E00FF000
T8414 000:154.641   CPU_ReadMem(64 bytes @ 0xE00FF000)
T8414 000:155.417   CPU_ReadMem(32 bytes @ 0xE000EFE0)
T8414 000:156.035   [0][0]: E000E000 CID B105E00D PID 000BB00C SCS-M7
T8414 000:156.051   CPU_ReadMem(32 bytes @ 0xE0001FE0)
T8414 000:156.646   [0][1]: E0001000 CID B105E00D PID 003BB002 DWT
T8414 000:156.661   CPU_ReadMem(32 bytes @ 0xE0002FE0)
T8414 000:157.232   [0][2]: E0002000 CID B105E00D PID 002BB003 FPB
T8414 000:157.241   CPU_ReadMem(32 bytes @ 0xE0000FE0)
T8414 000:157.791   [0][3]: E0000000 CID B105E00D PID 003BB001 ITM
T8414 000:157.800   CPU_ReadMem(32 bytes @ 0xE0040FE0)
T8414 000:158.384   [0][4]: E0040000 CID B105900D PID 000BB9A1 TPIU
T8414 000:158.400   CPU_ReadMem(32 bytes @ 0xE0041FE0)
T8414 000:158.972   [0][5]: E0041000 CID B105900D PID 000BB925 ETM
T8414 000:159.400 - 24.582ms returns 0x2BA01477
T8414 000:159.432 JLINK_GetDLLVersion()
T8414 000:159.437 - 0.004ms returns 81600
T8414 000:159.448 JLINK_CORE_GetFound()
T8414 000:159.452 - 0.004ms returns 0xE0000FF
T8414 000:159.457 JLINK_GetDebugInfo(0x100 = JLINKARM_ROM_TABLE_ADDR_INDEX)
T8414 000:159.463   Value=0xE00FF000
T8414 000:159.468 - 0.011ms returns 0
T8414 000:159.479 JLINK_GetDebugInfo(0x100 = JLINKARM_ROM_TABLE_ADDR_INDEX)
T8414 000:159.483   Value=0xE00FF000
T8414 000:159.488 - 0.009ms returns 0
T8414 000:159.493 JLINK_GetDebugInfo(0x101 = JLINKARM_DEBUG_INFO_ETM_ADDR_INDEX)
T8414 000:159.499   Value=0xE0041000
T8414 000:159.506 - 0.013ms returns 0
T8414 000:159.512 JLINK_ReadMemEx(0xE0041FD0, 0x20 Bytes, Flags = 0x02000004)
T8414 000:159.536   CPU_ReadMem(32 bytes @ 0xE0041FD0)
T8414 000:160.231   Data:  04 00 00 00 00 00 00 00 00 00 00 00 00 00 00 00 ...
T8414 000:160.240 - 0.728ms returns 32 (0x20)
T8414 000:160.260 JLINK_GetDebugInfo(0x102 = JLINKARM_DEBUG_INFO_MTB_ADDR_INDEX)
T8414 000:160.264   Value=0x00000000
T8414 000:160.270 - 0.010ms returns 0
T8414 000:160.275 JLINK_GetDebugInfo(0x103 = JLINKARM_DEBUG_INFO_TPIU_ADDR_INDEX)
T8414 000:160.278   Value=0xE0040000
T8414 000:160.284 - 0.009ms returns 0
T8414 000:160.288 JLINK_GetDebugInfo(0x104 = JLINKARM_DEBUG_INFO_ITM_ADDR_INDEX)
T8414 000:160.292   Value=0xE0000000
T8414 000:160.297 - 0.009ms returns 0
T8414 000:160.302 JLINK_GetDebugInfo(0x105 = JLINKARM_DEBUG_INFO_DWT_ADDR_INDEX)
T8414 000:160.306   Value=0xE0001000
T8414 000:160.311 - 0.009ms returns 0
T8414 000:160.315 JLINK_GetDebugInfo(0x106 = JLINKARM_DEBUG_INFO_FPB_ADDR_INDEX)
T8414 000:160.319   Value=0xE0002000
T8414 000:160.324 - 0.009ms returns 0
T8414 000:160.329 JLINK_GetDebugInfo(0x107 = JLINKARM_DEBUG_INFO_NVIC_ADDR_INDEX)
T8414 000:160.333   Value=0xE000E000
T8414 000:160.338 - 0.009ms returns 0
T8414 000:160.342 JLINK_GetDebugInfo(0x10C = JLINKARM_DEBUG_INFO_DBG_ADDR_INDEX)
T8414 000:160.346   Value=0xE000EDF0
T8414 000:160.351 - 0.009ms returns 0
T8414 000:160.356 JLINK_GetDebugInfo(0x01 = Unknown)
T8414 000:160.360   Value=0x00000001
T8414 000:160.365 - 0.009ms returns 0
T8414 000:160.370 JLINK_ReadMemU32(0xE000ED00, 0x1 Items)
T8414 000:160.377   CPU_ReadMem(4 bytes @ 0xE000ED00)
T8414 000:160.809   Data:  41 C2 0F 41
T8414 000:160.819   Debug reg: CPUID
T8414 000:160.825 - 0.455ms returns 1 (0x1)
T8414 000:160.847 JLINK_GetDebugInfo(0x10F = JLINKARM_DEBUG_INFO_HAS_CORTEX_M_SECURITY_EXT_INDEX)
T8414 000:160.851   Value=0x00000000
T8414 000:160.857 - 0.011ms returns 0
T8414 000:160.862 JLINK_HasError()
T8414 000:160.868 JLINK_SetResetType(JLINKARM_CM3_RESET_TYPE_NORMAL)
T8414 000:160.873 - 0.004ms returns JLINKARM_CM3_RESET_TYPE_NORMAL
T8414 000:160.877 JLINK_Reset()
T8414 000:161.670   JLINK_GetResetTypeDesc
T8414 000:161.679   - 0.009ms 
T8414 000:161.720   Reset type: NORMAL (https://wiki.segger.com/J-Link_Reset_Strategies)
T8414 000:161.733   CPU is running
T8414 000:161.741   CPU_WriteMem(4 bytes @ 0xE000EDF0)
T8414 000:162.210   CPU is running
T8414 000:162.219   CPU_WriteMem(4 bytes @ 0xE000EDFC)
T8414 000:162.650   Reset: Halt core after reset via DEMCR.VC_CORERESET.
T8414 000:163.378   Reset: Reset device via AIRCR.SYSRESETREQ.
T8414 000:163.387   CPU is running
T8414 000:163.394   CPU_WriteMem(4 bytes @ 0xE000ED0C)
T8414 000:217.917   CPU_ReadMem(4 bytes @ 0xE000EDF0)
T8414 000:218.452   CPU_ReadMem(4 bytes @ 0xE000EDF0)
T8414 000:221.483   CPU_WriteMem(4 bytes @ 0xE000EDFC)
T8414 000:228.030   CPU_ReadMem(4 bytes @ 0xE000EDF0)
T8414 000:231.130   CPU_WriteMem(4 bytes @ 0xE0002000)
T8414 000:231.718   CPU_ReadMem(4 bytes @ 0xE000EDFC)
T8414 000:232.310   CPU_ReadMem(4 bytes @ 0xE0001000)
T8414 000:232.887 - 72.009ms 
T8414 000:232.925 JLINK_HasError()
T8414 000:232.940 JLINK_ReadReg(R15 (PC))
T8414 000:232.946 - 0.014ms returns 0x08000190
T8414 000:232.950 JLINK_ReadReg(XPSR)
T8414 000:232.954 - 0.004ms returns 0x01000000
T8414 000:232.959 JLINK_Halt()
T8414 000:232.963 - 0.003ms returns 0x00
T8414 000:232.968 JLINK_ReadMemU32(0xE000EDF0, 0x1 Items)
T8414 000:232.975   CPU_ReadMem(4 bytes @ 0xE000EDF0)
T8414 000:253.390   Data:  03 00 03 00
T8414 000:253.412   Debug reg: DHCSR
T8414 000:253.418 - 20.450ms returns 1 (0x1)
T8414 000:253.471 JLINK_WriteU32(0xE000EDF0, 0xA05F0003)
T8414 000:253.476   Debug reg: DHCSR
T8414 000:253.749   CPU_WriteMem(4 bytes @ 0xE000EDF0)
T8414 000:254.418 - 0.941ms returns 0 (0x00000000)
T8414 000:254.556 JLINK_WriteU32(0xE000EDFC, 0x01000000)
T8414 000:254.578   Debug reg: DEMCR
T8414 000:254.616   CPU_WriteMem(4 bytes @ 0xE000EDFC)
T8414 000:255.230 - 0.674ms returns 0 (0x00000000)
T8414 000:255.290 JLINK_GetHWStatus(...)
T8414 000:255.976 - 0.686ms returns 0
T8414 000:256.047 JLINK_GetNumBPUnits(Type = 0xFFFFFF00)
T8414 000:256.053 - 0.006ms returns 0x06
T8414 000:256.058 JLINK_GetNumBPUnits(Type = 0xF0)
T8414 000:256.062 - 0.004ms returns 0x2000
T8414 000:256.066 JLINK_GetNumWPUnits()
T8414 000:256.070 - 0.003ms returns 4
T8414 000:256.081 JLINK_GetSpeed()
T8414 000:256.085 - 0.003ms returns 6000
T8414 000:256.094 JLINK_ReadMemU32(0xE000E004, 0x1 Items)
T8414 000:256.103   CPU_ReadMem(4 bytes @ 0xE000E004)
T8414 000:256.608   Data:  02 00 00 00
T8414 000:256.623 - 0.529ms returns 1 (0x1)
T8414 000:256.661 JLINK_ReadMemU32(0xE000E004, 0x1 Items)
T8414 000:256.670   CPU_ReadMem(4 bytes @ 0xE000E004)
T8414 000:257.230   Data:  02 00 00 00
T8414 000:257.245 - 0.583ms returns 1 (0x1)
T8414 000:257.277 JLINK_WriteMemEx(0xE0001000, 0x0000001C Bytes, Flags = 0x02000004)
T8414 000:257.282   Data:  01 00 00 00 00 00 00 00 00 00 00 00 00 00 00 00 ...
T8414 000:257.294   CPU_WriteMem(28 bytes @ 0xE0001000)
T8414 000:257.900 - 0.623ms returns 0x1C
T8414 000:257.962 JLINK_HasError()
T8414 000:257.969 JLINK_ReadReg(R15 (PC))
T8414 000:257.975 - 0.005ms returns 0x08000190
T8414 000:257.980 JLINK_ReadReg(XPSR)
T8414 000:257.984 - 0.004ms returns 0x01000000
T8414 000:263.554 JLINK_ReadMemEx(0xE0001004, 0x4 Bytes, Flags = 0x02000000)
T8414 000:263.586   Data:  00 00 00 00
T8414 000:263.598   Debug reg: DWT_CYCCNT
T8414 000:263.608 - 0.054ms returns 4 (0x4)
T8414 000:558.694 JLINK_HasError()
T8414 000:558.716 JLINK_SetResetType(JLINKARM_CM3_RESET_TYPE_NORMAL)
T8414 000:558.721 - 0.004ms returns JLINKARM_CM3_RESET_TYPE_NORMAL
T8414 000:558.725 JLINK_Reset()
T8414 000:560.814   JLINK_GetResetTypeDesc
T8414 000:560.829   - 0.014ms 
T8414 000:560.881   Reset type: NORMAL (https://wiki.segger.com/J-Link_Reset_Strategies)
T8414 000:560.889   CPU_WriteMem(4 bytes @ 0xE000EDF0)
T8414 000:561.445   CPU_WriteMem(4 bytes @ 0xE000EDFC)
T8414 000:562.035   Reset: Halt core after reset via DEMCR.VC_CORERESET.
T8414 000:563.051   Reset: Reset device via AIRCR.SYSRESETREQ.
T8414 000:563.068   CPU_WriteMem(4 bytes @ 0xE000ED0C)
T8414 000:617.825   CPU_ReadMem(4 bytes @ 0xE000EDF0)
T8414 000:618.368   CPU_ReadMem(4 bytes @ 0xE000EDF0)
T8414 000:618.861   CPU_WriteMem(4 bytes @ 0xE000EDFC)
T8414 000:625.335   CPU_ReadMem(4 bytes @ 0xE000EDF0)
T8414 000:628.351   CPU_WriteMem(4 bytes @ 0xE0002000)
T8414 000:628.956   CPU_ReadMem(4 bytes @ 0xE000EDFC)
T8414 000:629.452   CPU_ReadMem(4 bytes @ 0xE0001000)
T8414 000:630.099 - 71.373ms 
T8414 000:630.194 JLINK_HasError()
T8414 000:630.201 JLINK_ReadReg(R15 (PC))
T8414 000:630.206 - 0.005ms returns 0x08000190
T8414 000:630.211 JLINK_ReadReg(XPSR)
T8414 000:630.214 - 0.003ms returns 0x01000000
T8414 000:630.616 JLINK_ReadMemEx(0x0800017C, 0x3C Bytes, Flags = 0x02000000)
T8414 000:630.628   CPU_ReadMem(128 bytes @ 0x08000140)
T8414 000:653.107    -- Updating C cache (128 bytes @ 0x08000140)
T8414 000:653.124    -- Read from C cache (60 bytes @ 0x0800017C)
T8414 000:653.131   Data:  DF F8 0C D0 00 F0 D2 FA 00 48 00 47 01 B0 03 08 ...
T8414 000:653.137 - 22.521ms returns 60 (0x3C)
T8414 000:653.182 JLINK_ReadMemEx(0x0800017C, 0x2 Bytes, Flags = 0x02000000)
T8414 000:653.187    -- Read from C cache (2 bytes @ 0x0800017C)
T8414 000:653.192   Data:  DF F8
T8414 000:653.198 - 0.016ms returns 2 (0x2)
T8414 000:653.258 JLINK_ReadMemEx(0x0800017E, 0x2 Bytes, Flags = 0x02000000)
T8414 000:653.262    -- Read from C cache (2 bytes @ 0x0800017E)
T8414 000:653.266   Data:  0C D0
T8414 000:653.272 - 0.014ms returns 2 (0x2)
T8414 000:653.278 JLINK_ReadMemEx(0x08000180, 0x3C Bytes, Flags = 0x02000000)
T8414 000:653.281    -- Read from C cache (60 bytes @ 0x08000180)
T8414 000:653.287   Data:  00 F0 D2 FA 00 48 00 47 01 B0 03 08 D8 A0 01 20 ...
T8414 000:653.291 - 0.013ms returns 60 (0x3C)
T8414 000:653.296 JLINK_ReadMemEx(0x08000180, 0x2 Bytes, Flags = 0x02000000)
T8414 000:653.299    -- Read from C cache (2 bytes @ 0x08000180)
T8414 000:653.342   Data:  00 F0
T8414 000:653.346 - 0.051ms returns 2 (0x2)
T8414 000:653.351 JLINK_ReadMemEx(0x08000182, 0x2 Bytes, Flags = 0x02000000)
T8414 000:653.354    -- Read from C cache (2 bytes @ 0x08000182)
T8414 000:653.359   Data:  D2 FA
T8414 000:653.364 - 0.013ms returns 2 (0x2)
T8414 000:653.378 JLINK_ReadMemEx(0x08000184, 0x3C Bytes, Flags = 0x02000000)
T8414 000:653.382    -- Read from C cache (60 bytes @ 0x08000184)
T8414 000:653.387   Data:  00 48 00 47 01 B0 03 08 D8 A0 01 20 41 F2 00 00 ...
T8414 000:653.392 - 0.013ms returns 60 (0x3C)
T8414 000:653.396 JLINK_ReadMemEx(0x08000184, 0x2 Bytes, Flags = 0x02000000)
T8414 000:653.399    -- Read from C cache (2 bytes @ 0x08000184)
T8414 000:653.404   Data:  00 48
T8414 000:653.409 - 0.013ms returns 2 (0x2)
T8414 000:653.413 JLINK_ReadMemEx(0x08000186, 0x2 Bytes, Flags = 0x02000000)
T8414 000:653.417    -- Read from C cache (2 bytes @ 0x08000186)
T8414 000:653.421   Data:  00 47
T8414 000:653.426 - 0.013ms returns 2 (0x2)
T8414 000:653.431 JLINK_ReadMemEx(0x08000186, 0x2 Bytes, Flags = 0x02000000)
T8414 000:653.434    -- Read from C cache (2 bytes @ 0x08000186)
T8414 000:653.439   Data:  00 47
T8414 000:653.444 - 0.013ms returns 2 (0x2)
T8414 000:653.448 JLINK_ReadMemEx(0x08000188, 0x3C Bytes, Flags = 0x02000000)
T8414 000:653.454   CPU_ReadMem(64 bytes @ 0x080001C0)
T8414 000:654.303    -- Updating C cache (64 bytes @ 0x080001C0)
T8414 000:654.312    -- Read from C cache (60 bytes @ 0x08000188)
T8414 000:654.318   Data:  01 B0 03 08 D8 A0 01 20 41 F2 00 00 C2 F2 00 00 ...
T8414 000:654.323 - 0.875ms returns 60 (0x3C)
T8414 000:654.342 JLINK_ReadMemEx(0x08000188, 0x2 Bytes, Flags = 0x02000000)
T8414 000:654.346    -- Read from C cache (2 bytes @ 0x08000188)
T8414 000:654.351   Data:  01 B0
T8414 000:654.356 - 0.014ms returns 2 (0x2)
T8414 000:654.365 JLINK_ReadMemEx(0x0800018E, 0x2 Bytes, Flags = 0x02000000)
T8414 000:654.369    -- Read from C cache (2 bytes @ 0x0800018E)
T8414 000:654.374   Data:  01 20
T8414 000:654.378 - 0.013ms returns 2 (0x2)
T8414 000:654.382 JLINK_ReadMemEx(0x08000190, 0x3C Bytes, Flags = 0x02000000)
T8414 000:654.386    -- Read from C cache (60 bytes @ 0x08000190)
T8414 000:654.391   Data:  41 F2 00 00 C2 F2 00 00 85 46 0B 48 80 47 40 F2 ...
T8414 000:654.396 - 0.013ms returns 60 (0x3C)
T8414 000:654.400 JLINK_ReadMemEx(0x08000190, 0x2 Bytes, Flags = 0x02000000)
T8414 000:654.403    -- Read from C cache (2 bytes @ 0x08000190)
T8414 000:654.408   Data:  41 F2
T8414 000:654.413 - 0.013ms returns 2 (0x2)
T8414 000:654.423 JLINK_ReadMemEx(0x08000190, 0x3C Bytes, Flags = 0x02000000)
T8414 000:654.426    -- Read from C cache (60 bytes @ 0x08000190)
T8414 000:654.431   Data:  41 F2 00 00 C2 F2 00 00 85 46 0B 48 80 47 40 F2 ...
T8414 000:654.436 - 0.013ms returns 60 (0x3C)
T8414 000:654.440 JLINK_ReadMemEx(0x08000190, 0x2 Bytes, Flags = 0x02000000)
T8414 000:654.443    -- Read from C cache (2 bytes @ 0x08000190)
T8414 000:654.448   Data:  41 F2
T8414 000:654.453 - 0.013ms returns 2 (0x2)
T8414 000:654.457 JLINK_ReadMemEx(0x08000192, 0x2 Bytes, Flags = 0x02000000)
T8414 000:654.460    -- Read from C cache (2 bytes @ 0x08000192)
T8414 000:654.465   Data:  00 00
T8414 000:654.470 - 0.013ms returns 2 (0x2)
T8414 000:654.476 JLINK_ReadMemEx(0x08000194, 0x3C Bytes, Flags = 0x02000000)
T8414 000:654.479    -- Read from C cache (60 bytes @ 0x08000194)
T8414 000:654.484   Data:  C2 F2 00 00 85 46 0B 48 80 47 40 F2 00 00 C0 F6 ...
T8414 000:654.489 - 0.013ms returns 60 (0x3C)
T8414 000:654.493 JLINK_ReadMemEx(0x08000194, 0x2 Bytes, Flags = 0x02000000)
T8414 000:654.497    -- Read from C cache (2 bytes @ 0x08000194)
T8414 000:654.501   Data:  C2 F2
T8414 000:654.506 - 0.013ms returns 2 (0x2)
T8414 000:654.510 JLINK_ReadMemEx(0x08000196, 0x2 Bytes, Flags = 0x02000000)
T8414 000:654.514    -- Read from C cache (2 bytes @ 0x08000196)
T8414 000:654.518   Data:  00 00
T8414 000:654.523 - 0.013ms returns 2 (0x2)
T8414 000:654.529 JLINK_ReadMemEx(0x08000198, 0x3C Bytes, Flags = 0x02000000)
T8414 000:654.534    -- Read from C cache (60 bytes @ 0x08000198)
T8414 000:654.541   Data:  85 46 0B 48 80 47 40 F2 00 00 C0 F6 00 00 D0 F8 ...
T8414 000:654.546 - 0.017ms returns 60 (0x3C)
T8414 000:654.550 JLINK_ReadMemEx(0x08000198, 0x2 Bytes, Flags = 0x02000000)
T8414 000:654.553    -- Read from C cache (2 bytes @ 0x08000198)
T8414 000:654.558   Data:  85 46
T8414 000:654.563 - 0.013ms returns 2 (0x2)
T8414 000:654.567 JLINK_ReadMemEx(0x0800019A, 0x2 Bytes, Flags = 0x02000000)
T8414 000:654.570    -- Read from C cache (2 bytes @ 0x0800019A)
T8414 000:654.575   Data:  0B 48
T8414 000:654.580 - 0.013ms returns 2 (0x2)
T8414 000:902.810 JLINK_ReadMemEx(0x40020400, 0x14 Bytes, Flags = 0x02000004)
T8414 000:902.842   CPU_ReadMem(20 bytes @ 0x40020400)
T8414 000:903.527   Data:  00 00 00 00 00 00 00 00 00 00 00 00 00 00 00 00 ...
T8414 000:903.538 - 0.728ms returns 20 (0x14)
T8414 000:903.563 JLINK_ReadMemEx(0x40020414, 0x4 Bytes, Flags = 0x02000004)
T8414 000:903.570   CPU_ReadMem(4 bytes @ 0x40020414)
T8414 000:904.088   Data:  00 00 00 00
T8414 000:904.095 - 0.531ms returns 4 (0x4)
T8414 000:904.110 JLINK_ReadMemEx(0x4002041C, 0xC Bytes, Flags = 0x02000004)
T8414 000:904.116   CPU_ReadMem(12 bytes @ 0x4002041C)
T8414 000:904.653   Data:  00 00 00 00 00 00 00 00 00 00 00 00
T8414 000:904.660 - 0.550ms returns 12 (0xC)
T8414 000:904.677 JLINK_ReadMemEx(0x40020428, 0x4 Bytes, Flags = 0x02000004)
T8414 000:904.682   CPU_ReadMem(4 bytes @ 0x40020428)
T8414 000:905.215   Data:  00 00 00 00
T8414 000:905.221 - 0.544ms returns 4 (0x4)
T8414 000:905.235 JLINK_ReadMemEx(0x40020430, 0xC Bytes, Flags = 0x02000004)
T8414 000:905.241   CPU_ReadMem(12 bytes @ 0x40020430)
T8414 000:905.748   Data:  00 00 00 00 00 00 00 00 00 00 00 00
T8414 000:905.754 - 0.518ms returns 12 (0xC)
T8414 000:905.769 JLINK_ReadMemEx(0x4002043C, 0x4 Bytes, Flags = 0x02000004)
T8414 000:905.774   CPU_ReadMem(4 bytes @ 0x4002043C)
T8414 000:906.202   Data:  00 00 00 00
T8414 000:906.208 - 0.438ms returns 4 (0x4)
T8414 000:906.222 JLINK_ReadMemEx(0x40020444, 0xC Bytes, Flags = 0x02000004)
T8414 000:906.227   CPU_ReadMem(12 bytes @ 0x40020444)
T8414 000:906.685   Data:  00 00 00 00 00 00 00 00 00 00 00 00
T8414 000:906.691 - 0.468ms returns 12 (0xC)
T8414 000:906.712 JLINK_ReadMemEx(0x40020450, 0x4 Bytes, Flags = 0x02000004)
T8414 000:906.717   CPU_ReadMem(4 bytes @ 0x40020450)
T8414 000:907.208   Data:  00 00 00 00
T8414 000:907.214 - 0.501ms returns 4 (0x4)
T8414 000:907.231 JLINK_ReadMemEx(0x40020458, 0xC Bytes, Flags = 0x02000004)
T8414 000:907.236   CPU_ReadMem(12 bytes @ 0x40020458)
T8414 000:907.705   Data:  00 00 00 00 00 00 00 00 00 00 00 00
T8414 000:907.711 - 0.480ms returns 12 (0xC)
T8414 000:907.729 JLINK_ReadMemEx(0x40020464, 0x4 Bytes, Flags = 0x02000004)
T8414 000:907.734   CPU_ReadMem(4 bytes @ 0x40020464)
T8414 000:908.216   Data:  00 00 00 00
T8414 000:908.222 - 0.493ms returns 4 (0x4)
T8414 000:908.240 JLINK_ReadMemEx(0x4002046C, 0xC Bytes, Flags = 0x02000004)
T8414 000:908.245   CPU_ReadMem(12 bytes @ 0x4002046C)
T8414 000:908.754   Data:  00 00 00 00 00 00 00 00 00 00 00 00
T8414 000:908.760 - 0.520ms returns 12 (0xC)
T8414 000:908.777 JLINK_ReadMemEx(0x40020478, 0x4 Bytes, Flags = 0x02000004)
T8414 000:908.783   CPU_ReadMem(4 bytes @ 0x40020478)
T8414 000:909.247   Data:  00 00 00 00
T8414 000:909.254 - 0.476ms returns 4 (0x4)
T8414 000:909.271 JLINK_ReadMemEx(0x40020480, 0xC Bytes, Flags = 0x02000004)
T8414 000:909.276   CPU_ReadMem(12 bytes @ 0x40020480)
T8414 000:909.769   Data:  00 00 00 00 00 00 00 00 00 00 00 00
T8414 000:909.775 - 0.503ms returns 12 (0xC)
T8414 000:909.792 JLINK_ReadMemEx(0x4002048C, 0x4 Bytes, Flags = 0x02000004)
T8414 000:909.797   CPU_ReadMem(4 bytes @ 0x4002048C)
T8414 000:910.290   Data:  00 00 00 00
T8414 000:910.296 - 0.503ms returns 4 (0x4)
T8414 000:910.313 JLINK_ReadMemEx(0x400204A0, 0x4 Bytes, Flags = 0x02000004)
T8414 000:910.318   CPU_ReadMem(4 bytes @ 0x400204A0)
T8414 000:910.788   Data:  00 00 00 00
T8414 000:910.800 - 0.487ms returns 4 (0x4)
T8414 000:910.817 JLINK_ReadMemEx(0x400204A4, 0x4 Bytes, Flags = 0x02000004)
T8414 000:910.822   CPU_ReadMem(4 bytes @ 0x400204A4)
T8414 000:911.288   Data:  00 00 00 00
T8414 000:911.294 - 0.477ms returns 4 (0x4)
T8414 001:011.776 JLINK_ReadMemEx(0x40010400, 0x14 Bytes, Flags = 0x02000004)
T8414 001:011.809   CPU_ReadMem(20 bytes @ 0x40010400)
T8414 001:012.580   Data:  00 00 00 00 00 00 00 00 00 00 00 00 00 00 00 00 ...
T8414 001:012.597 - 0.821ms returns 20 (0x14)
T8414 001:012.644 JLINK_ReadMemEx(0x40010414, 0x4 Bytes, Flags = 0x02000004)
T8414 001:012.655   CPU_ReadMem(4 bytes @ 0x40010414)
T8414 001:013.233   Data:  00 00 00 00
T8414 001:013.240 - 0.596ms returns 4 (0x4)
T8414 001:132.601 JLINK_ReadMemEx(0x40005400, 0x20 Bytes, Flags = 0x02000004)
T8414 001:132.630   CPU_ReadMem(32 bytes @ 0x40005400)
T8414 001:133.303   Data:  00 00 00 00 00 00 00 00 00 00 00 00 00 00 00 00 ...
T8414 001:133.322 - 0.721ms returns 32 (0x20)
T8414 001:133.347 JLINK_ReadMemEx(0x40005420, 0x4 Bytes, Flags = 0x02000004)
T8414 001:133.357   CPU_ReadMem(4 bytes @ 0x40005420)
T8414 001:134.290   Data:  00 00 00 00
T8414 001:134.297 - 0.950ms returns 4 (0x4)
T8414 001:217.634 JLINK_ReadMemEx(0xE000E004, 0x4 Bytes, Flags = 0x02000004)
T8414 001:217.663   CPU_ReadMem(4 bytes @ 0xE000E004)
T8414 001:218.245   Data:  02 00 00 00
T8414 001:218.255 - 0.621ms returns 4 (0x4)
T8414 001:218.274 JLINK_ReadMemEx(0xE000E100, 0x4 Bytes, Flags = 0x02000004)
T8414 001:218.281   CPU_ReadMem(4 bytes @ 0xE000E100)
T8414 001:218.780   Data:  00 00 00 00
T8414 001:218.796 - 0.521ms returns 4 (0x4)
T8414 001:218.834 JLINK_ReadMemEx(0xE000E104, 0x4 Bytes, Flags = 0x02000004)
T8414 001:218.844   CPU_ReadMem(4 bytes @ 0xE000E104)
T8414 001:219.374   Data:  00 00 00 00
T8414 001:219.386 - 0.552ms returns 4 (0x4)
T8414 001:219.414 JLINK_ReadMemEx(0xE000E180, 0x4 Bytes, Flags = 0x02000004)
T8414 001:219.421   CPU_ReadMem(4 bytes @ 0xE000E180)
T8414 001:219.916   Data:  00 00 00 00
T8414 001:219.923 - 0.509ms returns 4 (0x4)
T8414 001:219.938 JLINK_ReadMemEx(0xE000E184, 0x4 Bytes, Flags = 0x02000004)
T8414 001:219.944   CPU_ReadMem(4 bytes @ 0xE000E184)
T8414 001:220.407   Data:  00 00 00 00
T8414 001:220.414 - 0.475ms returns 4 (0x4)
T8414 001:220.428 JLINK_ReadMemEx(0xE000E200, 0x4 Bytes, Flags = 0x02000004)
T8414 001:220.434   CPU_ReadMem(4 bytes @ 0xE000E200)
T8414 001:220.941   Data:  00 00 00 00
T8414 001:220.956 - 0.527ms returns 4 (0x4)
T8414 001:220.992 JLINK_ReadMemEx(0xE000E204, 0x4 Bytes, Flags = 0x02000004)
T8414 001:221.001   CPU_ReadMem(4 bytes @ 0xE000E204)
T8414 001:221.529   Data:  00 00 00 00
T8414 001:221.539 - 0.546ms returns 4 (0x4)
T8414 001:221.561 JLINK_ReadMemEx(0xE000E280, 0x4 Bytes, Flags = 0x02000004)
T8414 001:221.568   CPU_ReadMem(4 bytes @ 0xE000E280)
T8414 001:222.102   Data:  00 00 00 00
T8414 001:222.109 - 0.548ms returns 4 (0x4)
T8414 001:222.127 JLINK_ReadMemEx(0xE000E284, 0x4 Bytes, Flags = 0x02000004)
T8414 001:222.133   CPU_ReadMem(4 bytes @ 0xE000E284)
T8414 001:222.691   Data:  00 00 00 00
T8414 001:222.704 - 0.576ms returns 4 (0x4)
T8414 001:222.732 JLINK_ReadMemEx(0xE000E300, 0x4 Bytes, Flags = 0x02000004)
T8414 001:222.740   CPU_ReadMem(4 bytes @ 0xE000E300)
T8414 001:223.264   Data:  00 00 00 00
T8414 001:223.271 - 0.539ms returns 4 (0x4)
T8414 001:223.289 JLINK_ReadMemEx(0xE000E304, 0x4 Bytes, Flags = 0x02000004)
T8414 001:223.295   CPU_ReadMem(4 bytes @ 0xE000E304)
T8414 001:223.782   Data:  00 00 00 00
T8414 001:223.788 - 0.499ms returns 4 (0x4)
T8414 001:223.803 JLINK_ReadMemEx(0xE000E400, 0x38 Bytes, Flags = 0x02000004)
T8414 001:223.809   CPU_ReadMem(56 bytes @ 0xE000E400)
T8414 001:224.582   Data:  00 00 00 00 00 00 00 00 00 00 00 00 00 00 00 00 ...
T8414 001:224.589 - 0.785ms returns 56 (0x38)
T8414 001:224.604 JLINK_ReadMemEx(0xE000E438, 0x4 Bytes, Flags = 0x02000004)
T8414 001:224.609   CPU_ReadMem(4 bytes @ 0xE000E438)
T8414 001:225.096   Data:  00 00 00 00
T8414 001:225.103 - 0.498ms returns 4 (0x4)
T8414 002:944.408 JLINK_ReadMemEx(0x08000190, 0x3C Bytes, Flags = 0x02000000)
T8414 002:944.439    -- Read from C cache (60 bytes @ 0x08000190)
T8414 002:944.446   Data:  41 F2 00 00 C2 F2 00 00 85 46 0B 48 80 47 40 F2 ...
T8414 002:944.453 - 0.044ms returns 60 (0x3C)
T8414 002:944.458 JLINK_ReadMemEx(0x08000190, 0x2 Bytes, Flags = 0x02000000)
T8414 002:944.462    -- Read from C cache (2 bytes @ 0x08000190)
T8414 002:944.468   Data:  41 F2
T8414 002:944.474 - 0.016ms returns 2 (0x2)
T8414 002:944.479 JLINK_ReadMemEx(0x08000192, 0x2 Bytes, Flags = 0x02000000)
T8414 002:944.483    -- Read from C cache (2 bytes @ 0x08000192)
T8414 002:944.488   Data:  00 00
T8414 002:944.494 - 0.014ms returns 2 (0x2)
T8414 002:944.502 JLINK_ReadMemEx(0x08000194, 0x3C Bytes, Flags = 0x02000000)
T8414 002:944.506    -- Read from C cache (60 bytes @ 0x08000194)
T8414 002:944.512   Data:  C2 F2 00 00 85 46 0B 48 80 47 40 F2 00 00 C0 F6 ...
T8414 002:944.517 - 0.015ms returns 60 (0x3C)
T8414 002:944.521 JLINK_ReadMemEx(0x08000194, 0x2 Bytes, Flags = 0x02000000)
T8414 002:944.526    -- Read from C cache (2 bytes @ 0x08000194)
T8414 002:944.531   Data:  C2 F2
T8414 002:944.536 - 0.015ms returns 2 (0x2)
T8414 002:944.541 JLINK_ReadMemEx(0x08000196, 0x2 Bytes, Flags = 0x02000000)
T8414 002:944.545    -- Read from C cache (2 bytes @ 0x08000196)
T8414 002:944.550   Data:  00 00
T8414 002:944.555 - 0.014ms returns 2 (0x2)
T8414 002:944.562 JLINK_ReadMemEx(0x08000198, 0x3C Bytes, Flags = 0x02000000)
T8414 002:944.566    -- Read from C cache (60 bytes @ 0x08000198)
T8414 002:944.571   Data:  85 46 0B 48 80 47 40 F2 00 00 C0 F6 00 00 D0 F8 ...
T8414 002:944.577 - 0.015ms returns 60 (0x3C)
T8414 002:944.581 JLINK_ReadMemEx(0x08000198, 0x2 Bytes, Flags = 0x02000000)
T8414 002:944.585    -- Read from C cache (2 bytes @ 0x08000198)
T8414 002:944.590   Data:  85 46
T8414 002:944.595 - 0.014ms returns 2 (0x2)
T8414 002:944.600 JLINK_ReadMemEx(0x0800019A, 0x2 Bytes, Flags = 0x02000000)
T8414 002:944.604    -- Read from C cache (2 bytes @ 0x0800019A)
T8414 002:944.609   Data:  0B 48
T8414 002:944.614 - 0.014ms returns 2 (0x2)
T8414 002:944.620 JLINK_ReadMemEx(0x0800019A, 0x2 Bytes, Flags = 0x02000000)
T8414 002:944.624    -- Read from C cache (2 bytes @ 0x0800019A)
T8414 002:944.629   Data:  0B 48
T8414 002:944.635 - 0.014ms returns 2 (0x2)
T8414 002:944.639 JLINK_ReadMemEx(0x0800019C, 0x3C Bytes, Flags = 0x02000000)
T8414 002:944.643    -- Read from C cache (60 bytes @ 0x0800019C)
T8414 002:944.649   Data:  80 47 40 F2 00 00 C0 F6 00 00 D0 F8 00 D0 08 48 ...
T8414 002:944.654 - 0.015ms returns 60 (0x3C)
T8414 002:944.659 JLINK_ReadMemEx(0x0800019C, 0x2 Bytes, Flags = 0x02000000)
T8414 002:944.662    -- Read from C cache (2 bytes @ 0x0800019C)
T8414 002:944.668   Data:  80 47
T8414 002:944.673 - 0.014ms returns 2 (0x2)
T8414 003:229.475 JLINK_HasError()
T8414 003:229.500 JLINK_ReadReg(R0)
T8414 003:230.254 - 0.752ms returns 0x00000000
T8414 003:230.298 JLINK_ReadReg(R1)
T8414 003:230.303 - 0.004ms returns 0x00000000
T8414 003:230.307 JLINK_ReadReg(R2)
T8414 003:230.310 - 0.003ms returns 0x00000000
T8414 003:230.314 JLINK_ReadReg(R3)
T8414 003:230.318 - 0.003ms returns 0x00000000
T8414 003:230.322 JLINK_ReadReg(R4)
T8414 003:230.325 - 0.003ms returns 0x00000000
T8414 003:230.329 JLINK_ReadReg(R5)
T8414 003:230.332 - 0.003ms returns 0x00000000
T8414 003:230.336 JLINK_ReadReg(R6)
T8414 003:230.340 - 0.003ms returns 0x00000000
T8414 003:230.343 JLINK_ReadReg(R7)
T8414 003:230.347 - 0.003ms returns 0x00000000
T8414 003:230.361 JLINK_ReadReg(R8)
T8414 003:230.364 - 0.013ms returns 0x00000000
T8414 003:230.369 JLINK_ReadReg(R9)
T8414 003:230.373 - 0.003ms returns 0x00000000
T8414 003:230.376 JLINK_ReadReg(R10)
T8414 003:230.380 - 0.003ms returns 0x00000000
T8414 003:230.384 JLINK_ReadReg(R11)
T8414 003:230.387 - 0.003ms returns 0x00000000
T8414 003:230.391 JLINK_ReadReg(R12)
T8414 003:230.394 - 0.003ms returns 0x00000000
T8414 003:230.398 JLINK_ReadReg(R13 (SP))
T8414 003:230.402 - 0.003ms returns 0x2001A0D8
T8414 003:230.446 JLINK_ReadReg(R14)
T8414 003:230.450 - 0.003ms returns 0xFFFFFFFF
T8414 003:230.454 JLINK_ReadReg(R15 (PC))
T8414 003:230.457 - 0.003ms returns 0x08000190
T8414 003:230.461 JLINK_ReadReg(XPSR)
T8414 003:230.465 - 0.003ms returns 0x01000000
T8414 003:230.469 JLINK_ReadReg(MSP)
T8414 003:230.472 - 0.003ms returns 0x2001A0D8
T8414 003:230.476 JLINK_ReadReg(PSP)
T8414 003:230.479 - 0.003ms returns 0x00000000
T8414 003:230.483 JLINK_ReadReg(CFBP)
T8414 003:230.486 - 0.003ms returns 0x00000000
T8414 003:230.490 JLINK_ReadReg(FPSCR)
T8414 003:234.261 - 3.769ms returns 0x00000000
T8414 003:234.287 JLINK_ReadReg(FPS0)
T8414 003:234.293 - 0.005ms returns 0x00000000
T8414 003:234.299 JLINK_ReadReg(FPS1)
T8414 003:234.303 - 0.003ms returns 0x00000000
T8414 003:234.307 JLINK_ReadReg(FPS2)
T8414 003:234.310 - 0.003ms returns 0x00000000
T8414 003:234.314 JLINK_ReadReg(FPS3)
T8414 003:234.318 - 0.003ms returns 0x00000000
T8414 003:234.321 JLINK_ReadReg(FPS4)
T8414 003:234.325 - 0.003ms returns 0x00000000
T8414 003:234.328 JLINK_ReadReg(FPS5)
T8414 003:234.332 - 0.003ms returns 0x00000000
T8414 003:234.336 JLINK_ReadReg(FPS6)
T8414 003:234.339 - 0.003ms returns 0x00000000
T8414 003:234.343 JLINK_ReadReg(FPS7)
T8414 003:234.347 - 0.004ms returns 0x00000000
T8414 003:234.351 JLINK_ReadReg(FPS8)
T8414 003:234.354 - 0.003ms returns 0x00000000
T8414 003:234.358 JLINK_ReadReg(FPS9)
T8414 003:234.361 - 0.003ms returns 0x00000000
T8414 003:234.365 JLINK_ReadReg(FPS10)
T8414 003:234.368 - 0.003ms returns 0x00000000
T8414 003:234.372 JLINK_ReadReg(FPS11)
T8414 003:234.376 - 0.003ms returns 0x00000000
T8414 003:234.379 JLINK_ReadReg(FPS12)
T8414 003:234.382 - 0.003ms returns 0x00000000
T8414 003:234.386 JLINK_ReadReg(FPS13)
T8414 003:234.390 - 0.003ms returns 0x00000000
T8414 003:234.393 JLINK_ReadReg(FPS14)
T8414 003:234.397 - 0.003ms returns 0x00000000
T8414 003:234.400 JLINK_ReadReg(FPS15)
T8414 003:234.404 - 0.003ms returns 0x00000000
T8414 003:234.408 JLINK_ReadReg(FPS16)
T8414 003:234.411 - 0.003ms returns 0x00000000
T8414 003:234.415 JLINK_ReadReg(FPS17)
T8414 003:234.418 - 0.003ms returns 0x00000000
T8414 003:234.422 JLINK_ReadReg(FPS18)
T8414 003:234.425 - 0.003ms returns 0x00000000
T8414 003:234.429 JLINK_ReadReg(FPS19)
T8414 003:234.432 - 0.003ms returns 0x00000000
T8414 003:234.436 JLINK_ReadReg(FPS20)
T8414 003:234.440 - 0.003ms returns 0x00000000
T8414 003:234.444 JLINK_ReadReg(FPS21)
T8414 003:234.447 - 0.003ms returns 0x00000000
T8414 003:234.451 JLINK_ReadReg(FPS22)
T8414 003:234.454 - 0.003ms returns 0x00000000
T8414 003:234.458 JLINK_ReadReg(FPS23)
T8414 003:234.461 - 0.003ms returns 0x00000000
T8414 003:234.465 JLINK_ReadReg(FPS24)
T8414 003:234.468 - 0.003ms returns 0x00000000
T8414 003:234.472 JLINK_ReadReg(FPS25)
T8414 003:234.475 - 0.003ms returns 0x00000000
T8414 003:234.479 JLINK_ReadReg(FPS26)
T8414 003:234.482 - 0.003ms returns 0x00000000
T8414 003:234.486 JLINK_ReadReg(FPS27)
T8414 003:234.489 - 0.003ms returns 0x00000000
T8414 003:234.493 JLINK_ReadReg(FPS28)
T8414 003:234.496 - 0.003ms returns 0x00000000
T8414 003:234.500 JLINK_ReadReg(FPS29)
T8414 003:234.504 - 0.003ms returns 0x00000000
T8414 003:234.507 JLINK_ReadReg(FPS30)
T8414 003:234.511 - 0.003ms returns 0x00000000
T8414 003:234.514 JLINK_ReadReg(FPS31)
T8414 003:234.518 - 0.003ms returns 0x00000000
T8414 003:234.816 JLINK_ReadMemEx(0x20001184, 0x4 Bytes, Flags = 0x02000000)
T8414 003:234.836   CPU_ReadMem(64 bytes @ 0x20001180)
T8414 003:235.728    -- Updating C cache (64 bytes @ 0x20001180)
T8414 003:235.736    -- Read from C cache (4 bytes @ 0x20001184)
T8414 003:235.741   Data:  00 1C 4E 0E
T8414 003:235.747 - 0.931ms returns 4 (0x4)
T8414 003:239.266 JLINK_ReadMemEx(0x20001184, 0x4 Bytes, Flags = 0x02000000)
T8414 003:239.282    -- Read from C cache (4 bytes @ 0x20001184)
T8414 003:239.287   Data:  00 1C 4E 0E
T8414 003:239.293 - 0.026ms returns 4 (0x4)
T8414 003:239.322 JLINK_ReadMemEx(0x20001184, 0x4 Bytes, Flags = 0x02000000)
T8414 003:239.329    -- Read from C cache (4 bytes @ 0x20001184)
T8414 003:239.335   Data:  00 1C 4E 0E
T8414 003:239.340 - 0.017ms returns 4 (0x4)
T8414 003:241.119 JLINK_ReadMemEx(0x20001011, 0x1 Bytes, Flags = 0x02000000)
T8414 003:241.136   CPU_ReadMem(64 bytes @ 0x20001000)
T8414 003:242.396    -- Updating C cache (64 bytes @ 0x20001000)
T8414 003:242.408    -- Read from C cache (1 bytes @ 0x20001011)
T8414 003:242.413   Data:  01
T8414 003:242.418 - 1.299ms returns 1 (0x1)
T8414 003:242.572 JLINK_ReadMemEx(0x20001011, 0x1 Bytes, Flags = 0x02000000)
T8414 003:242.580    -- Read from C cache (1 bytes @ 0x20001011)
T8414 003:242.585   Data:  01
T8414 003:242.590 - 0.017ms returns 1 (0x1)
T8414 003:242.605 JLINK_ReadMemEx(0x20001011, 0x1 Bytes, Flags = 0x02000000)
T8414 003:242.609    -- Read from C cache (1 bytes @ 0x20001011)
T8414 003:242.613   Data:  01
T8414 003:242.618 - 0.013ms returns 1 (0x1)
T4218 003:314.852 JLINK_ReadMemEx(0x08000190, 0x2 Bytes, Flags = 0x02000000)
T4218 003:314.877    -- Read from C cache (2 bytes @ 0x08000190)
T4218 003:314.882   Data:  41 F2
T4218 003:314.888 - 0.037ms returns 2 (0x2)
T4218 003:314.893 JLINK_HasError()
T4218 003:314.900 JLINK_SetBPEx(Addr = 0x0803B000, Type = 0xFFFFFFF2)
T4218 003:314.905 - 0.005ms returns 0x00000001
T4218 003:314.909 JLINK_HasError()
T4218 003:314.913 JLINK_HasError()
T4218 003:314.917 JLINK_Go()
T4218 003:314.926   CPU_WriteMem(4 bytes @ 0xE0002000)
T4218 003:315.788   CPU_ReadMem(4 bytes @ 0xE0001000)
T4218 003:316.354   CPU_WriteMem(4 bytes @ 0xE0002008)
T4218 003:316.368   CPU_WriteMem(4 bytes @ 0xE000200C)
T4218 003:316.373   CPU_WriteMem(4 bytes @ 0xE0002010)
T4218 003:316.378   CPU_WriteMem(4 bytes @ 0xE0002014)
T4218 003:316.383   CPU_WriteMem(4 bytes @ 0xE0002018)
T4218 003:316.388   CPU_WriteMem(4 bytes @ 0xE000201C)
T4218 003:318.366   CPU_WriteMem(4 bytes @ 0xE0001004)
T4218 003:319.794   Memory map 'after startup completion point' is active
T4218 003:319.809 - 4.891ms 
T4218 003:419.996 JLINK_HasError()
T4218 003:420.032 JLINK_IsHalted()
T4218 003:422.573 - 2.540ms returns TRUE
T4218 003:422.600 JLINK_HasError()
T4218 003:422.604 JLINK_Halt()
T4218 003:422.608 - 0.003ms returns 0x00
T4218 003:422.612 JLINK_IsHalted()
T4218 003:422.616 - 0.003ms returns TRUE
T4218 003:422.620 JLINK_IsHalted()
T4218 003:422.624 - 0.003ms returns TRUE
T4218 003:422.627 JLINK_IsHalted()
T4218 003:422.630 - 0.003ms returns TRUE
T4218 003:422.635 JLINK_HasError()
T4218 003:422.640 JLINK_ReadReg(R15 (PC))
T4218 003:422.644 - 0.005ms returns 0x0803B000
T4218 003:422.648 JLINK_ReadReg(XPSR)
T4218 003:422.652 - 0.003ms returns 0x61000000
T4218 003:422.659 JLINK_HasError()
T4218 003:422.663 JLINK_ClrBPEx(BPHandle = 0x00000001)
T4218 003:422.667 - 0.004ms returns 0x00
T4218 003:422.671 JLINK_HasError()
T4218 003:422.675 JLINK_HasError()
T4218 003:422.679 JLINK_ReadMemU32(0xE000ED30, 0x1 Items)
T4218 003:422.687   CPU_ReadMem(4 bytes @ 0xE000ED30)
T4218 003:423.544   Data:  02 00 00 00
T4218 003:423.557 - 0.877ms returns 1 (0x1)
T4218 003:423.582 JLINK_ReadMemU32(0xE0001028, 0x1 Items)
T4218 003:423.590   CPU_ReadMem(4 bytes @ 0xE0001028)
T4218 003:424.125   Data:  00 00 00 00
T4218 003:424.136   Debug reg: DWT_FUNC[0]
T4218 003:424.141 - 0.559ms returns 1 (0x1)
T4218 003:424.162 JLINK_ReadMemU32(0xE0001038, 0x1 Items)
T4218 003:424.168   CPU_ReadMem(4 bytes @ 0xE0001038)
T4218 003:424.642   Data:  00 02 00 00
T4218 003:424.652   Debug reg: DWT_FUNC[1]
T4218 003:424.656 - 0.494ms returns 1 (0x1)
T4218 003:424.676 JLINK_ReadMemU32(0xE0001048, 0x1 Items)
T4218 003:424.682   CPU_ReadMem(4 bytes @ 0xE0001048)
T4218 003:425.196   Data:  00 00 00 00
T4218 003:425.202   Debug reg: DWT_FUNC[2]
T4218 003:425.207 - 0.532ms returns 1 (0x1)
T4218 003:425.225 JLINK_ReadMemU32(0xE0001058, 0x1 Items)
T4218 003:425.230   CPU_ReadMem(4 bytes @ 0xE0001058)
T4218 003:426.020   Data:  00 00 00 00
T4218 003:426.034   Debug reg: DWT_FUNC[3]
T4218 003:426.039 - 0.814ms returns 1 (0x1)
T4218 003:426.127 JLINK_HasError()
T4218 003:426.138 JLINK_ReadReg(R0)
T4218 003:426.143 - 0.004ms returns 0x0803B001
T4218 003:426.147 JLINK_ReadReg(R1)
T4218 003:426.150 - 0.003ms returns 0x2001A0D8
T4218 003:426.154 JLINK_ReadReg(R2)
T4218 003:426.158 - 0.003ms returns 0x00000000
T4218 003:426.161 JLINK_ReadReg(R3)
T4218 003:426.165 - 0.003ms returns 0x08045A4D
T4218 003:426.168 JLINK_ReadReg(R4)
T4218 003:426.172 - 0.003ms returns 0x0804BABC
T4218 003:426.176 JLINK_ReadReg(R5)
T4218 003:426.179 - 0.003ms returns 0x0804BABC
T4218 003:426.183 JLINK_ReadReg(R6)
T4218 003:426.186 - 0.003ms returns 0x00000000
T4218 003:426.190 JLINK_ReadReg(R7)
T4218 003:426.193 - 0.003ms returns 0x00000000
T4218 003:426.197 JLINK_ReadReg(R8)
T4218 003:426.200 - 0.003ms returns 0x00000000
T4218 003:426.204 JLINK_ReadReg(R9)
T4218 003:426.208 - 0.003ms returns 0x00000000
T4218 003:426.212 JLINK_ReadReg(R10)
T4218 003:426.215 - 0.003ms returns 0x00000000
T4218 003:426.219 JLINK_ReadReg(R11)
T4218 003:426.222 - 0.003ms returns 0x00000000
T4218 003:426.226 JLINK_ReadReg(R12)
T4218 003:426.229 - 0.003ms returns 0x00000000
T4218 003:426.233 JLINK_ReadReg(R13 (SP))
T4218 003:426.237 - 0.004ms returns 0x2001A0C8
T4218 003:426.241 JLINK_ReadReg(R14)
T4218 003:426.244 - 0.003ms returns 0x0800074F
T4218 003:426.248 JLINK_ReadReg(R15 (PC))
T4218 003:426.252 - 0.003ms returns 0x0803B000
T4218 003:426.256 JLINK_ReadReg(XPSR)
T4218 003:426.259 - 0.003ms returns 0x61000000
T4218 003:426.263 JLINK_ReadReg(MSP)
T4218 003:426.266 - 0.003ms returns 0x2001A0C8
T4218 003:426.270 JLINK_ReadReg(PSP)
T4218 003:426.273 - 0.003ms returns 0x00000000
T4218 003:426.277 JLINK_ReadReg(CFBP)
T4218 003:426.280 - 0.003ms returns 0x00000000
T4218 003:426.284 JLINK_ReadReg(FPSCR)
T4218 003:430.190 - 3.904ms returns 0x00000000
T4218 003:430.213 JLINK_ReadReg(FPS0)
T4218 003:430.218 - 0.005ms returns 0x00000000
T4218 003:430.222 JLINK_ReadReg(FPS1)
T4218 003:430.226 - 0.003ms returns 0x00000000
T4218 003:430.230 JLINK_ReadReg(FPS2)
T4218 003:430.233 - 0.003ms returns 0x00000000
T4218 003:430.237 JLINK_ReadReg(FPS3)
T4218 003:430.240 - 0.003ms returns 0x00000000
T4218 003:430.244 JLINK_ReadReg(FPS4)
T4218 003:430.248 - 0.003ms returns 0x00000000
T4218 003:430.252 JLINK_ReadReg(FPS5)
T4218 003:430.255 - 0.003ms returns 0x00000000
T4218 003:430.259 JLINK_ReadReg(FPS6)
T4218 003:430.262 - 0.003ms returns 0x00000000
T4218 003:430.266 JLINK_ReadReg(FPS7)
T4218 003:430.269 - 0.003ms returns 0x00000000
T4218 003:430.273 JLINK_ReadReg(FPS8)
T4218 003:430.276 - 0.003ms returns 0x00000000
T4218 003:430.280 JLINK_ReadReg(FPS9)
T4218 003:430.284 - 0.003ms returns 0x00000000
T4218 003:430.288 JLINK_ReadReg(FPS10)
T4218 003:430.291 - 0.003ms returns 0x00000000
T4218 003:430.295 JLINK_ReadReg(FPS11)
T4218 003:430.298 - 0.003ms returns 0x00000000
T4218 003:430.302 JLINK_ReadReg(FPS12)
T4218 003:430.305 - 0.003ms returns 0x00000000
T4218 003:430.309 JLINK_ReadReg(FPS13)
T4218 003:430.312 - 0.003ms returns 0x00000000
T4218 003:430.316 JLINK_ReadReg(FPS14)
T4218 003:430.320 - 0.003ms returns 0x00000000
T4218 003:430.324 JLINK_ReadReg(FPS15)
T4218 003:430.327 - 0.003ms returns 0x00000000
T4218 003:430.331 JLINK_ReadReg(FPS16)
T4218 003:430.334 - 0.003ms returns 0x00000000
T4218 003:430.338 JLINK_ReadReg(FPS17)
T4218 003:430.341 - 0.003ms returns 0x00000000
T4218 003:430.345 JLINK_ReadReg(FPS18)
T4218 003:430.348 - 0.003ms returns 0x00000000
T4218 003:430.352 JLINK_ReadReg(FPS19)
T4218 003:430.356 - 0.003ms returns 0x00000000
T4218 003:430.359 JLINK_ReadReg(FPS20)
T4218 003:430.362 - 0.003ms returns 0x00000000
T4218 003:430.366 JLINK_ReadReg(FPS21)
T4218 003:430.370 - 0.003ms returns 0x00000000
T4218 003:430.373 JLINK_ReadReg(FPS22)
T4218 003:430.376 - 0.003ms returns 0x00000000
T4218 003:430.380 JLINK_ReadReg(FPS23)
T4218 003:430.384 - 0.003ms returns 0x00000000
T4218 003:430.388 JLINK_ReadReg(FPS24)
T4218 003:430.391 - 0.003ms returns 0x00000000
T4218 003:430.395 JLINK_ReadReg(FPS25)
T4218 003:430.398 - 0.003ms returns 0x00000000
T4218 003:430.404 JLINK_ReadReg(FPS26)
T4218 003:430.409 - 0.004ms returns 0x00000000
T4218 003:430.413 JLINK_ReadReg(FPS27)
T4218 003:430.416 - 0.003ms returns 0x00000000
T4218 003:430.420 JLINK_ReadReg(FPS28)
T4218 003:430.424 - 0.003ms returns 0x00000000
T4218 003:430.427 JLINK_ReadReg(FPS29)
T4218 003:430.431 - 0.003ms returns 0x00000000
T4218 003:430.434 JLINK_ReadReg(FPS30)
T4218 003:430.438 - 0.003ms returns 0x00000000
T4218 003:430.442 JLINK_ReadReg(FPS31)
T4218 003:430.445 - 0.003ms returns 0x00000000
T8414 003:436.352 JLINK_ReadMemEx(0x20001184, 0x4 Bytes, Flags = 0x02000000)
T8414 003:436.378   CPU_ReadMem(64 bytes @ 0x20001180)
T8414 003:437.646    -- Updating C cache (64 bytes @ 0x20001180)
T8414 003:437.662    -- Read from C cache (4 bytes @ 0x20001184)
T8414 003:437.668   Data:  00 12 7A 00
T8414 003:437.673 - 1.321ms returns 4 (0x4)
T8414 003:437.724 JLINK_ReadMemEx(0x20001011, 0x1 Bytes, Flags = 0x02000000)
T8414 003:437.733   CPU_ReadMem(64 bytes @ 0x20001000)
T8414 003:438.459    -- Updating C cache (64 bytes @ 0x20001000)
T8414 003:438.471    -- Read from C cache (1 bytes @ 0x20001011)
T8414 003:438.476   Data:  01
T8414 003:438.482 - 0.757ms returns 1 (0x1)
T8414 003:439.124 JLINK_ReadMemEx(0xE000E004, 0x4 Bytes, Flags = 0x02000004)
T8414 003:439.135   CPU_ReadMem(4 bytes @ 0xE000E004)
T8414 003:439.598   Data:  02 00 00 00
T8414 003:439.608 - 0.483ms returns 4 (0x4)
T8414 003:439.629 JLINK_ReadMemEx(0xE000E100, 0x4 Bytes, Flags = 0x02000004)
T8414 003:439.636   CPU_ReadMem(4 bytes @ 0xE000E100)
T8414 003:440.189   Data:  00 00 00 00
T8414 003:440.194 - 0.565ms returns 4 (0x4)
T8414 003:440.208 JLINK_ReadMemEx(0xE000E104, 0x4 Bytes, Flags = 0x02000004)
T8414 003:440.214   CPU_ReadMem(4 bytes @ 0xE000E104)
T8414 003:441.092   Data:  00 00 00 00
T8414 003:441.119 - 0.910ms returns 4 (0x4)
T8414 003:441.133 JLINK_ReadMemEx(0xE000E180, 0x4 Bytes, Flags = 0x02000004)
T8414 003:441.138   CPU_ReadMem(4 bytes @ 0xE000E180)
T8414 003:441.572   Data:  00 00 00 00
T8414 003:441.584 - 0.451ms returns 4 (0x4)
T8414 003:441.611 JLINK_ReadMemEx(0xE000E184, 0x4 Bytes, Flags = 0x02000004)
T8414 003:441.620   CPU_ReadMem(4 bytes @ 0xE000E184)
T8414 003:442.119   Data:  00 00 00 00
T8414 003:442.128 - 0.517ms returns 4 (0x4)
T8414 003:442.150 JLINK_ReadMemEx(0xE000E200, 0x4 Bytes, Flags = 0x02000004)
T8414 003:442.156   CPU_ReadMem(4 bytes @ 0xE000E200)
T8414 003:443.020   Data:  00 00 00 00
T8414 003:443.028 - 0.878ms returns 4 (0x4)
T8414 003:443.049 JLINK_ReadMemEx(0xE000E204, 0x4 Bytes, Flags = 0x02000004)
T8414 003:443.056   CPU_ReadMem(4 bytes @ 0xE000E204)
T8414 003:443.463   Data:  00 00 00 00
T8414 003:443.472 - 0.423ms returns 4 (0x4)
T8414 003:443.495 JLINK_ReadMemEx(0xE000E280, 0x4 Bytes, Flags = 0x02000004)
T8414 003:443.501   CPU_ReadMem(4 bytes @ 0xE000E280)
T8414 003:444.045   Data:  00 00 00 00
T8414 003:444.052 - 0.557ms returns 4 (0x4)
T8414 003:444.066 JLINK_ReadMemEx(0xE000E284, 0x4 Bytes, Flags = 0x02000004)
T8414 003:444.071   CPU_ReadMem(4 bytes @ 0xE000E284)
T8414 003:444.551   Data:  00 00 00 00
T8414 003:444.561 - 0.495ms returns 4 (0x4)
T8414 003:444.584 JLINK_ReadMemEx(0xE000E300, 0x4 Bytes, Flags = 0x02000004)
T8414 003:444.591   CPU_ReadMem(4 bytes @ 0xE000E300)
T8414 003:445.204   Data:  00 00 00 00
T8414 003:445.210 - 0.626ms returns 4 (0x4)
T8414 003:445.225 JLINK_ReadMemEx(0xE000E304, 0x4 Bytes, Flags = 0x02000004)
T8414 003:445.230   CPU_ReadMem(4 bytes @ 0xE000E304)
T8414 003:445.982   Data:  00 00 00 00
T8414 003:445.988 - 0.762ms returns 4 (0x4)
T8414 003:446.002 JLINK_ReadMemEx(0xE000E400, 0x38 Bytes, Flags = 0x02000004)
T8414 003:446.007   CPU_ReadMem(56 bytes @ 0xE000E400)
T8414 003:446.761   Data:  00 00 00 00 00 00 00 00 00 00 00 00 00 00 00 00 ...
T8414 003:446.767 - 0.765ms returns 56 (0x38)
T8414 003:446.781 JLINK_ReadMemEx(0xE000E438, 0x4 Bytes, Flags = 0x02000004)
T8414 003:446.786   CPU_ReadMem(4 bytes @ 0xE000E438)
T8414 003:447.275   Data:  00 00 00 00
T8414 003:447.280 - 0.500ms returns 4 (0x4)
T8414 003:447.546 JLINK_ReadMemEx(0x40020400, 0x14 Bytes, Flags = 0x02000004)
T8414 003:447.557   CPU_ReadMem(20 bytes @ 0x40020400)
T8414 003:448.068   Data:  00 00 00 00 00 00 00 00 00 00 00 00 00 00 00 00 ...
T8414 003:448.074 - 0.529ms returns 20 (0x14)
T8414 003:448.089 JLINK_ReadMemEx(0x40020414, 0x4 Bytes, Flags = 0x02000004)
T8414 003:448.095   CPU_ReadMem(4 bytes @ 0x40020414)
T8414 003:448.510   Data:  00 00 00 00
T8414 003:448.516 - 0.426ms returns 4 (0x4)
T8414 003:448.529 JLINK_ReadMemEx(0x4002041C, 0xC Bytes, Flags = 0x02000004)
T8414 003:448.534   CPU_ReadMem(12 bytes @ 0x4002041C)
T8414 003:449.088   Data:  00 00 00 00 00 00 00 00 00 00 00 00
T8414 003:449.094 - 0.565ms returns 12 (0xC)
T8414 003:449.107 JLINK_ReadMemEx(0x40020428, 0x4 Bytes, Flags = 0x02000004)
T8414 003:449.112   CPU_ReadMem(4 bytes @ 0x40020428)
T8414 003:449.562   Data:  00 00 00 00
T8414 003:449.568 - 0.461ms returns 4 (0x4)
T8414 003:449.582 JLINK_ReadMemEx(0x40020430, 0xC Bytes, Flags = 0x02000004)
T8414 003:449.587   CPU_ReadMem(12 bytes @ 0x40020430)
T8414 003:450.213   Data:  00 00 00 00 00 00 00 00 00 00 00 00
T8414 003:450.226 - 0.644ms returns 12 (0xC)
T8414 003:450.243 JLINK_ReadMemEx(0x4002043C, 0x4 Bytes, Flags = 0x02000004)
T8414 003:450.250   CPU_ReadMem(4 bytes @ 0x4002043C)
T8414 003:451.038   Data:  00 00 00 00
T8414 003:451.050 - 0.806ms returns 4 (0x4)
T8414 003:451.072 JLINK_ReadMemEx(0x40020444, 0xC Bytes, Flags = 0x02000004)
T8414 003:451.078   CPU_ReadMem(12 bytes @ 0x40020444)
T8414 003:451.597   Data:  00 00 00 00 00 00 00 00 00 00 00 00
T8414 003:451.610 - 0.538ms returns 12 (0xC)
T8414 003:451.652 JLINK_ReadMemEx(0x40020450, 0x4 Bytes, Flags = 0x02000004)
